time	V(vin)	I(D1)	I(D2)	I(D6)
0.000000000000000e+000	0.000000e+000	1.051550e-011	2.177038e-011	1.395803e-002
1.283566106842308e-006	1.155210e-004	1.051553e-011	2.156915e-011	1.395803e-002
2.567132213684616e-006	2.310419e-004	1.051557e-011	2.141871e-011	1.395803e-002
3.850698320526923e-006	3.465629e-004	1.051562e-011	2.131906e-011	1.395803e-002
5.134264427369231e-006	4.620838e-004	1.051567e-011	2.127022e-011	1.395803e-002
6.417830534211539e-006	5.776048e-004	1.051572e-011	2.127216e-011	1.395803e-002
7.701396641053846e-006	6.931257e-004	1.051578e-011	2.132490e-011	1.395802e-002
8.984962747896151e-006	8.086467e-004	1.051584e-011	2.142844e-011	1.395802e-002
2.631239915082634e-003	2.368116e-001	1.057138e-011	2.142864e-011	1.395550e-002
5.253494867417372e-003	4.728146e-001	1.062234e-011	2.142889e-011	1.395246e-002
7.875749819752108e-003	7.088175e-001	1.066872e-011	2.142918e-011	1.394889e-002
1.049800477208685e-002	9.448205e-001	1.071051e-011	2.142950e-011	1.394479e-002
1.312025972442158e-002	1.180823e+000	1.074771e-011	2.142987e-011	1.394016e-002
1.574251467675632e-002	1.416826e+000	1.078033e-011	2.143028e-011	1.393501e-002
1.836476962909105e-002	1.652829e+000	1.080837e-011	2.143073e-011	1.392934e-002
1.949479195051964e-002	1.754531e+000	1.082557e-011	2.143094e-011	1.392665e-002
2.062481427194823e-002	1.856233e+000	1.085300e-011	2.143120e-011	1.392337e-002
2.175483659337682e-002	1.957935e+000	1.089067e-011	2.143150e-011	1.391950e-002
2.288485891480541e-002	2.059637e+000	1.093856e-011	2.143184e-011	1.391502e-002
2.401488123623399e-002	2.161339e+000	1.099669e-011	2.143223e-011	1.390995e-002
2.514490355766258e-002	2.263041e+000	1.106505e-011	2.143267e-011	1.390428e-002
2.627492587909117e-002	2.364743e+000	1.114364e-011	2.143315e-011	1.389801e-002
2.673530534337689e-002	2.406177e+000	1.117746e-011	2.143336e-011	1.389520e-002
2.719568480766261e-002	2.447612e+000	1.122915e-011	2.143362e-011	1.389173e-002
2.765606427194833e-002	2.489046e+000	1.129870e-011	2.143393e-011	1.388759e-002
2.811644373623405e-002	2.530480e+000	1.138612e-011	2.143428e-011	1.388279e-002
2.857682320051977e-002	2.571914e+000	1.149140e-011	2.143469e-011	1.387733e-002
2.903720266480549e-002	2.613348e+000	1.161455e-011	2.143514e-011	1.387120e-002
2.949758212909121e-002	2.654782e+000	1.175557e-011	2.143563e-011	1.386441e-002
2.967894373623407e-002	2.671105e+000	1.181607e-011	2.143585e-011	1.386145e-002
2.986030534337693e-002	2.687427e+000	1.190388e-011	2.143611e-011	1.385777e-002
3.004166695051979e-002	2.703750e+000	1.201899e-011	2.143643e-011	1.385336e-002
3.022302855766265e-002	2.720072e+000	1.216139e-011	2.143679e-011	1.384822e-002
3.040439016480551e-002	2.736395e+000	1.233110e-011	2.143719e-011	1.384237e-002
3.058575177194837e-002	2.752718e+000	1.252812e-011	2.143765e-011	1.383579e-002
3.076711337909123e-002	2.769040e+000	1.275243e-011	2.143816e-011	1.382849e-002
3.096242587909123e-002	2.786618e+000	1.312813e-011	2.143889e-011	1.381755e-002
3.106008212909123e-002	2.795407e+000	1.338313e-011	2.143935e-011	1.381063e-002
3.115773837909124e-002	2.804196e+000	1.371014e-011	2.143989e-011	1.380223e-002
3.125539462909124e-002	2.812985e+000	1.414828e-011	2.144056e-011	1.379168e-002
3.135305087909124e-002	2.821774e+000	1.476960e-011	2.144141e-011	1.377779e-002
3.145070712909124e-002	2.830564e+000	1.570991e-011	2.144254e-011	1.375857e-002
3.154836337909124e-002	2.839353e+000	1.719602e-011	2.144401e-011	1.373124e-002
3.164601962909124e-002	2.848142e+000	1.947582e-011	2.144574e-011	1.369386e-002
3.174367587909124e-002	2.856931e+000	2.262282e-011	2.144738e-011	1.364783e-002
3.193898837909125e-002	2.874509e+000	3.085858e-011	2.144800e-011	1.354447e-002
3.213430087909125e-002	2.892087e+000	4.056024e-011	2.143737e-011	1.343803e-002
3.223195712909125e-002	2.900876e+000	4.563361e-011	2.130053e-011	1.338457e-002
3.232961337909125e-002	2.909665e+000	5.069483e-011	2.059323e-011	1.333100e-002
3.239613525094173e-002	2.915652e+000	5.406712e-011	1.910107e-011	1.329445e-002
3.246413501224664e-002	2.921772e+000	5.739111e-011	1.606036e-011	1.325702e-002
3.253641285481655e-002	2.928277e+000	6.080761e-011	1.157183e-011	1.321720e-002
3.253735851685972e-002	2.928362e+000	6.085178e-011	1.150194e-011	1.321668e-002
3.254303248911873e-002	2.928873e+000	6.111071e-011	1.104218e-011	1.321354e-002
3.255059778546408e-002	2.929554e+000	6.145122e-011	1.049967e-011	1.320937e-002
3.255293690659652e-002	2.929764e+000	6.155604e-011	1.647008e-011	1.320807e-002
3.255343814683918e-002	2.929809e+000	6.157846e-011	6.761276e-011	1.320780e-002
3.255410646716274e-002	2.929870e+000	6.160758e-011	3.562460e-009	1.320743e-002
3.255544310780985e-002	2.929990e+000	6.163642e-011	1.432068e-007	1.320668e-002
3.255637394340916e-002	2.930074e+000	6.142772e-011	1.285195e-006	1.320609e-002
3.255700202350280e-002	2.930130e+000	6.047864e-011	5.822631e-006	1.320540e-002
3.255743034017430e-002	2.930169e+000	5.817496e-011	1.700209e-005	1.320434e-002
3.255779630370850e-002	2.930202e+000	5.383732e-011	3.956377e-005	1.320259e-002
3.255828528150769e-002	2.930246e+000	4.577014e-011	8.440555e-005	1.319957e-002
3.255847887836201e-002	2.930263e+000	4.269277e-011	1.028248e-004	1.319858e-002
3.255864475337012e-002	2.930278e+000	4.064478e-011	1.159296e-004	1.319814e-002
3.255886781952128e-002	2.930298e+000	3.871973e-011	1.285748e-004	1.319804e-002
3.255914325608682e-002	2.930323e+000	3.715188e-011	1.388965e-004	1.319832e-002
3.255929465041563e-002	2.930336e+000	3.661307e-011	1.423483e-004	1.319861e-002
3.255956948502053e-002	2.930361e+000	3.610894e-011	1.452937e-004	1.319921e-002
3.255992387827675e-002	2.930393e+000	3.584525e-011	1.464904e-004	1.319986e-002
3.256099860073532e-002	2.930490e+000	3.579681e-011	1.464360e-004	1.320008e-002
3.256207332319388e-002	2.930587e+000	3.575511e-011	1.465264e-004	1.320010e-002
3.256314804565245e-002	2.930683e+000	3.572016e-011	1.467616e-004	1.319993e-002
3.256422276811101e-002	2.930780e+000	3.569196e-011	1.471416e-004	1.319957e-002
3.256529749056958e-002	2.930877e+000	3.567051e-011	1.476664e-004	1.319901e-002
3.256637221302814e-002	2.930974e+000	3.565581e-011	1.483360e-004	1.319826e-002
3.256744693548671e-002	2.931070e+000	3.564786e-011	1.491505e-004	1.319731e-002
3.272250599037118e-002	2.945026e+000	3.258481e-011	2.365015e-004	1.310999e-002
3.287756504525565e-002	2.958981e+000	2.988098e-011	3.241202e-004	1.302241e-002
3.303262410014012e-002	2.972936e+000	2.753636e-011	4.120067e-004	1.293454e-002
3.318768315502459e-002	2.986891e+000	2.555094e-011	5.001610e-004	1.284641e-002
3.334274220990906e-002	3.000847e+000	2.392474e-011	5.885830e-004	1.275799e-002
3.349780126479353e-002	3.014802e+000	2.265775e-011	6.772727e-004	1.266931e-002
3.365286031967800e-002	3.028757e+000	2.174997e-011	7.662302e-004	1.258034e-002
3.443411031967801e-002	3.099070e+000	1.879359e-011	1.218388e-003	1.212819e-002
3.521536031967802e-002	3.169382e+000	1.635030e-011	1.678374e-003	1.166820e-002
3.599661031967803e-002	3.239695e+000	1.442008e-011	2.146190e-003	1.120039e-002
3.677786031967804e-002	3.310007e+000	1.300295e-011	2.621836e-003	1.072474e-002
3.755911031967806e-002	3.380320e+000	1.209890e-011	3.105310e-003	1.024127e-002
3.834036031967807e-002	3.450632e+000	1.170792e-011	3.596614e-003	9.749958e-003
3.912161031967808e-002	3.520945e+000	1.183003e-011	4.095748e-003	9.250820e-003
4.012607460539238e-002	3.611347e+000	1.153435e-011	4.750273e-003	8.596289e-003
4.113053889110668e-002	3.701748e+000	1.128459e-011	5.419497e-003	7.927060e-003
4.213500317682098e-002	3.792150e+000	1.108073e-011	6.103420e-003	7.243132e-003
4.313946746253528e-002	3.882552e+000	1.092278e-011	6.802042e-003	6.544504e-003
4.414393174824958e-002	3.972954e+000	1.081074e-011	7.515363e-003	5.831178e-003
4.514839603396388e-002	4.063356e+000	1.074461e-011	8.243383e-003	5.103152e-003
4.615286031967818e-002	4.153758e+000	1.072439e-011	8.986101e-003	4.360428e-003
4.634817281967818e-002	4.171336e+000	1.070628e-011	9.132068e-003	4.214460e-003
4.644582906967818e-002	4.180125e+000	1.068963e-011	9.205235e-003	4.141292e-003
4.654348531967818e-002	4.188914e+000	1.066110e-011	9.278524e-003	4.068003e-003
4.664114156967818e-002	4.197703e+000	1.060957e-011	9.351932e-003	3.994595e-003
4.673879781967819e-002	4.206492e+000	1.051450e-011	9.425456e-003	3.921069e-003
4.683645406967819e-002	4.215281e+000	1.033980e-011	9.499095e-003	3.847429e-003
4.693411031967819e-002	4.224070e+000	1.002813e-011	9.572849e-003	3.773676e-003
4.703176656967819e-002	4.232859e+000	9.503639e-012	9.646712e-003	3.699812e-003
4.712942281967819e-002	4.241648e+000	8.696771e-012	9.720683e-003	3.625839e-003
4.722707906967819e-002	4.250437e+000	7.593136e-012	9.794760e-003	3.551762e-003
4.732473531967819e-002	4.259226e+000	6.272884e-012	9.868940e-003	3.477582e-003
4.742239156967820e-002	4.268015e+000	4.893708e-012	9.943219e-003	3.403303e-003
4.752004781967820e-002	4.276804e+000	3.620889e-012	1.001759e-002	3.328928e-003
4.761770406967820e-002	4.285594e+000	2.562287e-012	1.009206e-002	3.254460e-003
4.771536031967820e-002	4.294383e+000	1.751263e-012	1.016662e-002	3.179904e-003
4.781301656967820e-002	4.303172e+000	1.167473e-012	1.024126e-002	3.105263e-003
4.791067281967820e-002	4.311961e+000	7.659854e-013	1.031598e-002	3.030542e-003
4.810598531967820e-002	4.329539e+000	3.234588e-013	1.046564e-002	2.880879e-003
4.839895406967821e-002	4.355906e+000	8.492432e-014	1.069060e-002	2.655917e-003
4.851056121253535e-002	4.365951e+000	2.277137e-014	1.077645e-002	2.570063e-003
4.862216835539250e-002	4.375995e+000	-1.503551e-014	1.086232e-002	2.484197e-003
4.873377549824964e-002	4.386040e+000	-2.849632e-014	1.094820e-002	2.398318e-003
4.884538264110679e-002	4.396085e+000	-1.761105e-014	1.103409e-002	2.312427e-003
4.895698978396393e-002	4.406129e+000	1.762029e-014	1.111999e-002	2.226523e-003
4.906859692682108e-002	4.416174e+000	7.719771e-014	1.120591e-002	2.140607e-003
4.918020406967822e-002	4.426219e+000	1.611212e-013	1.129184e-002	2.054679e-003
4.937551656967822e-002	4.443797e+000	1.357085e-009	1.144201e-002	1.904506e-003
4.947317281967822e-002	4.452586e+000	5.082301e-009	1.151699e-002	1.829515e-003
4.957082906967823e-002	4.461375e+000	1.089945e-008	1.159189e-002	1.754613e-003
4.966848531967823e-002	4.470164e+000	2.066359e-008	1.166667e-002	1.679820e-003
4.976614156967823e-002	4.478953e+000	3.893410e-008	1.174132e-002	1.605158e-003
4.986379781967823e-002	4.487742e+000	7.312343e-008	1.181579e-002	1.530653e-003
4.996145406967823e-002	4.496531e+000	1.371620e-007	1.189004e-002	1.456334e-003
5.005911031967823e-002	4.505320e+000	2.571705e-007	1.196402e-002	1.382232e-003
5.015676656967823e-002	4.514109e+000	4.819786e-007	1.203765e-002	1.308384e-003
5.025442281967824e-002	4.522898e+000	9.023642e-007	1.211078e-002	1.234830e-003
5.035207906967824e-002	4.531687e+000	1.685035e-006	1.218321e-002	1.161618e-003
5.044973531967824e-002	4.540476e+000	3.129559e-006	1.225459e-002	1.088801e-003
5.054739156967824e-002	4.549265e+000	5.753000e-006	1.232433e-002	1.016441e-003
5.064504781967824e-002	4.558054e+000	1.038922e-005	1.239153e-002	9.446096e-004
5.074270406967824e-002	4.566844e+000	1.824249e-005	1.245490e-002	8.733909e-004
5.084036031967824e-002	4.575633e+000	3.078672e-005	1.251287e-002	8.028839e-004
5.093801656967825e-002	4.584422e+000	4.943893e-005	1.256391e-002	7.332064e-004
5.103567281967825e-002	4.593211e+000	7.512817e-005	1.260694e-002	6.644997e-004
5.113332906967825e-002	4.602000e+000	1.080378e-004	1.264161e-002	5.969352e-004
5.123098531967825e-002	4.610789e+000	1.476810e-004	1.266819e-002	5.307232e-004
5.132864156967825e-002	4.619578e+000	1.931927e-004	1.268729e-002	4.661234e-004
5.142629781967825e-002	4.628367e+000	2.436150e-004	1.269954e-002	4.034593e-004
5.152395406967825e-002	4.637156e+000	2.980666e-004	1.270542e-002	3.431377e-004
5.162161031967825e-002	4.645945e+000	3.558052e-004	1.270516e-002	2.856714e-004
5.171926656967826e-002	4.654734e+000	4.162306e-004	1.269872e-002	2.317037e-004
5.181692281967826e-002	4.663523e+000	4.788655e-004	1.268577e-002	1.820245e-004
5.191457906967826e-002	4.672312e+000	5.433310e-004	1.266579e-002	1.375556e-004
5.201223531967826e-002	4.681101e+000	6.093250e-004	1.263810e-002	9.926374e-005
5.210989156967826e-002	4.689890e+000	6.766053e-004	1.260214e-002	6.795628e-005
5.220754781967826e-002	4.698679e+000	7.449754e-004	1.255777e-002	4.397371e-005
5.230520406967826e-002	4.707469e+000	8.142740e-004	1.250553e-002	2.692853e-005
5.240286031967827e-002	4.716258e+000	8.843672e-004	1.244666e-002	1.571328e-005
5.250051656967827e-002	4.725047e+000	9.551434e-004	1.238277e-002	8.832621e-006
5.259817281967827e-002	4.733836e+000	1.026508e-003	1.231540e-002	4.839393e-006
5.269582906967827e-002	4.742625e+000	1.098382e-003	1.224576e-002	2.610194e-006
5.279348531967827e-002	4.751414e+000	1.170695e-003	1.217467e-002	1.395669e-006
5.289114156967827e-002	4.760203e+000	1.243389e-003	1.210263e-002	7.431218e-007
5.298879781967827e-002	4.768992e+000	1.316413e-003	1.202995e-002	3.950827e-007
5.308645406967828e-002	4.777781e+000	1.389721e-003	1.195683e-002	2.100975e-007
5.318411031967828e-002	4.786570e+000	1.463274e-003	1.188338e-002	1.118971e-007
5.328176656967828e-002	4.795359e+000	1.537037e-003	1.180967e-002	5.976984e-008
5.337942281967828e-002	4.804148e+000	1.610980e-003	1.173575e-002	3.207179e-008
5.347707906967828e-002	4.812937e+000	1.685074e-003	1.166167e-002	1.734552e-008
5.357473531967828e-002	4.821726e+000	1.759296e-003	1.158746e-002	9.486950e-009
5.377004781967829e-002	4.839304e+000	1.908035e-003	1.143873e-002	3.046565e-009
5.393745853396400e-002	4.854371e+000	2.035881e-003	1.131088e-002	1.958567e-009
5.410486924824972e-002	4.869438e+000	2.163704e-003	1.118306e-002	1.099132e-009
5.427227996253543e-002	4.884505e+000	2.291503e-003	1.105526e-002	4.682605e-010
5.443969067682115e-002	4.899572e+000	2.419278e-003	1.092749e-002	6.595275e-011
5.460710139110687e-002	4.914639e+000	2.547030e-003	1.079974e-002	-1.077915e-010
5.477451210539259e-002	4.929706e+000	2.674757e-003	1.067201e-002	-5.297212e-011
5.494192281967830e-002	4.944773e+000	2.802461e-003	1.054431e-002	2.304108e-010
5.513723531967830e-002	4.962351e+000	2.951093e-003	1.039568e-002	2.163388e-010
5.523489156967831e-002	4.971140e+000	3.025309e-003	1.032146e-002	2.091209e-010
5.533254781967831e-002	4.979929e+000	3.099451e-003	1.024732e-002	2.010665e-010
5.543020406967831e-002	4.988719e+000	3.173514e-003	1.017326e-002	1.917121e-010
5.552786031967831e-002	4.997508e+000	3.247495e-003	1.009928e-002	1.806428e-010
5.562551656967831e-002	5.006297e+000	3.321388e-003	1.002539e-002	1.675649e-010
5.572317281967831e-002	5.015086e+000	3.395190e-003	9.951583e-003	1.524646e-010
5.582082906967831e-002	5.023875e+000	3.468898e-003	9.877875e-003	1.358184e-010
5.591848531967832e-002	5.032664e+000	3.542508e-003	9.804265e-003	1.186476e-010
5.601614156967832e-002	5.041453e+000	3.616018e-003	9.730755e-003	1.022555e-010
5.611379781967832e-002	5.050242e+000	3.689425e-003	9.657349e-003	8.772594e-011
5.621145406967832e-002	5.059031e+000	3.762725e-003	9.584049e-003	7.557534e-011
5.630911031967832e-002	5.067820e+000	3.835917e-003	9.510858e-003	6.577351e-011
5.640676656967832e-002	5.076609e+000	3.908997e-003	9.437777e-003	5.797890e-011
5.650442281967832e-002	5.085398e+000	3.981965e-003	9.364810e-003	5.178037e-011
5.660207906967833e-002	5.094187e+000	4.054818e-003	9.291957e-003	4.680490e-011
5.669973531967833e-002	5.102976e+000	4.127554e-003	9.219222e-003	4.276076e-011
5.699270406967833e-002	5.129344e+000	4.345042e-003	9.001735e-003	3.427928e-011
5.859705674824973e-002	5.273735e+000	5.514079e-003	7.832699e-003	2.522697e-011
6.020140942682112e-002	5.418127e+000	6.647322e-003	6.699459e-003	1.807749e-011
6.180576210539251e-002	5.562519e+000	7.744770e-003	5.602014e-003	1.283084e-011
6.341011478396391e-002	5.706910e+000	8.806424e-003	4.540364e-003	9.487022e-012
6.501446746253531e-002	5.851302e+000	9.832283e-003	3.514509e-003	8.046027e-012
6.661882014110671e-002	5.995694e+000	1.082235e-002	2.524450e-003	8.507859e-012
6.822317281967809e-002	6.140086e+000	1.177662e-002	1.570186e-003	1.087252e-011
6.853009246253522e-002	6.167708e+000	1.195607e-002	1.390736e-003	1.084757e-011
6.883701210539234e-002	6.195331e+000	1.213441e-002	1.212397e-003	1.082429e-011
6.914393174824947e-002	6.222954e+000	1.231164e-002	1.035168e-003	1.080268e-011
6.945085139110659e-002	6.250577e+000	1.248777e-002	8.590482e-004	1.078275e-011
6.975777103396372e-002	6.278200e+000	1.266279e-002	6.840387e-004	1.076449e-011
7.006469067682083e-002	6.305822e+000	1.283670e-002	5.101392e-004	1.074791e-011
7.037161031967797e-002	6.333445e+000	1.300951e-002	3.373496e-004	1.073300e-011
7.066457906967795e-002	6.359812e+000	1.317348e-002	1.734475e-004	1.071763e-011
7.076223531967794e-002	6.368601e+000	1.322792e-002	1.190786e-004	1.071085e-011
7.085989156967794e-002	6.377390e+000	1.328225e-002	6.503803e-005	1.069563e-011
7.095754781967793e-002	6.386179e+000	1.333641e-002	1.476639e-005	1.053774e-011
7.099521099031031e-002	6.389569e+000	1.335716e-002	1.675953e-007	1.029215e-011
7.099599495017964e-002	6.389639e+000	1.335759e-002	4.691850e-008	1.028011e-011
7.099756286991829e-002	6.389781e+000	1.335844e-002	3.225446e-008	1.024759e-011
7.100069870939559e-002	6.390063e+000	1.336014e-002	1.593761e-008	1.018237e-011
7.100697038835017e-002	6.390627e+000	1.336355e-002	4.421921e-009	1.005285e-011
7.101951374625937e-002	6.391756e+000	1.337038e-002	4.733261e-011	9.796565e-012
7.102032882864778e-002	6.391829e+000	1.337082e-002	1.190491e-011	9.780109e-012
7.102195899342460e-002	6.391976e+000	1.337170e-002	1.106632e-011	9.747551e-012
7.102521932297826e-002	6.392270e+000	1.337348e-002	1.054274e-011	9.682905e-012
7.103173998208555e-002	6.392857e+000	1.337702e-002	1.046042e-011	9.555448e-012
7.104478130030013e-002	6.394030e+000	1.338411e-002	1.073205e-011	9.307639e-012
7.107086393672930e-002	6.396378e+000	1.339827e-002	1.153928e-011	8.838738e-012
7.112302920958764e-002	6.401073e+000	1.342657e-002	1.397066e-011	7.993131e-012
7.122068545958764e-002	6.409862e+000	1.347947e-002	1.980001e-011	6.581959e-012
7.124896173955532e-002	6.412406e+000	1.349477e-002	2.138908e-011	6.212809e-012
7.125107330918992e-002	6.412597e+000	1.349591e-002	2.144326e-011	6.187252e-012
7.129767756881064e-002	6.416791e+000	1.352134e-002	2.144606e-011	5.677544e-012
7.134428182843138e-002	6.420985e+000	1.354641e-002	2.144809e-011	5.207575e-012
7.139088608805209e-002	6.425180e+000	1.357113e-002	2.144936e-011	4.777344e-012
7.143749034767281e-002	6.429374e+000	1.359549e-002	2.144986e-011	4.386852e-012
7.148409460729353e-002	6.433569e+000	1.361950e-002	2.144960e-011	4.036098e-012
7.153069886691427e-002	6.437763e+000	1.364315e-002	2.144857e-011	3.725083e-012
7.157730312653499e-002	6.441957e+000	1.366645e-002	2.144678e-011	3.453806e-012
7.167495937653498e-002	6.450747e+000	1.370900e-002	2.144507e-011	2.996962e-012
7.177261562653498e-002	6.459536e+000	1.374239e-002	2.144342e-011	2.695009e-012
7.187027187653497e-002	6.468325e+000	1.376639e-002	2.144209e-011	2.513865e-012
7.196792812653496e-002	6.477114e+000	1.378334e-002	2.144107e-011	2.409758e-012
7.206558437653496e-002	6.485903e+000	1.379580e-002	2.144030e-011	2.349893e-012
7.216324062653495e-002	6.494692e+000	1.380543e-002	2.143969e-011	2.316143e-012
7.235855312653494e-002	6.512270e+000	1.381967e-002	2.143875e-011	2.292791e-012
7.265152187653493e-002	6.538637e+000	1.383428e-002	2.143776e-011	2.315348e-012
7.286078526939206e-002	6.557471e+000	1.384144e-002	2.143726e-011	2.358734e-012
7.307004866224919e-002	6.576305e+000	1.384789e-002	2.143681e-011	2.409459e-012
7.327931205510632e-002	6.595138e+000	1.385364e-002	2.143640e-011	2.467524e-012
7.348857544796345e-002	6.613972e+000	1.385868e-002	2.143605e-011	2.532929e-012
7.369783884082058e-002	6.632806e+000	1.386301e-002	2.143574e-011	2.605673e-012
7.390710223367770e-002	6.651639e+000	1.386664e-002	2.143547e-011	2.685756e-012
7.411636562653484e-002	6.670473e+000	1.386957e-002	2.143526e-011	2.773179e-012
7.464649955510624e-002	6.718185e+000	1.387626e-002	2.143477e-011	3.014092e-012
