time	V(vin)	I(D1)	I(D2)	I(D6)
0.000000000000000e+000	0.000000e+000	1.041020e-011	1.204865e-003	1.380863e-002
1.254440891779395e-006	1.128997e-004	1.041018e-011	1.204757e-003	1.380863e-002
2.508881783558790e-006	2.257994e-004	1.041017e-011	1.204677e-003	1.380863e-002
3.763322675338185e-006	3.386990e-004	1.041016e-011	1.204624e-003	1.380863e-002
5.017763567117580e-006	4.515987e-004	1.041016e-011	1.204599e-003	1.380862e-002
6.272204458896975e-006	5.644984e-004	1.041017e-011	1.204601e-003	1.380862e-002
7.526645350676370e-006	6.773981e-004	1.041019e-011	1.204631e-003	1.380862e-002
8.781086242455763e-006	7.902978e-004	1.041021e-011	1.204688e-003	1.380862e-002
2.658629552298215e-003	2.392766e-001	1.041026e-011	1.207567e-003	1.380574e-002
5.308478018353976e-003	4.777630e-001	1.041030e-011	1.211051e-003	1.380226e-002
7.958326484409735e-003	7.162494e-001	1.041032e-011	1.215142e-003	1.379817e-002
1.060817495046549e-002	9.547357e-001	1.041033e-011	1.219838e-003	1.379347e-002
1.325802341652125e-002	1.193222e+000	1.041032e-011	1.225140e-003	1.378817e-002
1.590787188257702e-002	1.431708e+000	1.041030e-011	1.231047e-003	1.378226e-002
1.855772034863277e-002	1.670195e+000	1.041026e-011	1.237560e-003	1.377575e-002
1.968774267006136e-002	1.771897e+000	1.041025e-011	1.240615e-003	1.377269e-002
2.081776499148995e-002	1.873599e+000	1.041025e-011	1.244341e-003	1.376897e-002
2.194778731291853e-002	1.975301e+000	1.041025e-011	1.248739e-003	1.376457e-002
2.307780963434712e-002	2.077003e+000	1.041024e-011	1.253808e-003	1.375950e-002
2.420783195577571e-002	2.178705e+000	1.041024e-011	1.259548e-003	1.375376e-002
2.533785427720429e-002	2.280407e+000	1.041025e-011	1.265959e-003	1.374735e-002
2.646787659863288e-002	2.382109e+000	1.041025e-011	1.273042e-003	1.374026e-002
2.692825606291860e-002	2.423543e+000	1.041025e-011	1.276229e-003	1.373708e-002
2.738863552720432e-002	2.464977e+000	1.041025e-011	1.280140e-003	1.373317e-002
2.784901499149005e-002	2.506411e+000	1.041026e-011	1.284776e-003	1.372853e-002
2.830939445577577e-002	2.547846e+000	1.041027e-011	1.290136e-003	1.372317e-002
2.876977392006148e-002	2.589280e+000	1.041028e-011	1.296221e-003	1.371708e-002
2.923015338434721e-002	2.630714e+000	1.041030e-011	1.303030e-003	1.371027e-002
2.969053284863293e-002	2.672148e+000	1.041032e-011	1.310563e-003	1.370274e-002
2.987189445577579e-002	2.688471e+000	1.041033e-011	1.313880e-003	1.369942e-002
3.005325606291865e-002	2.704793e+000	1.041035e-011	1.317927e-003	1.369538e-002
3.023461767006151e-002	2.721116e+000	1.041037e-011	1.322704e-003	1.369060e-002
3.041597927720437e-002	2.737438e+000	1.041040e-011	1.328210e-003	1.368509e-002
3.059734088434723e-002	2.753761e+000	1.041044e-011	1.334446e-003	1.367885e-002
3.077870249149009e-002	2.770083e+000	1.041049e-011	1.341412e-003	1.367189e-002
3.096006409863295e-002	2.786406e+000	1.041055e-011	1.349108e-003	1.366419e-002
3.115537659863295e-002	2.803984e+000	1.041066e-011	1.360258e-003	1.365304e-002
3.135068909863295e-002	2.821562e+000	1.041085e-011	1.375242e-003	1.363805e-002
3.144834534863295e-002	2.830351e+000	1.041100e-011	1.385087e-003	1.362820e-002
3.154600159863295e-002	2.839140e+000	1.041123e-011	1.397436e-003	1.361584e-002
3.164365784863295e-002	2.847929e+000	1.041159e-011	1.413563e-003	1.359971e-002
3.174131409863296e-002	2.856718e+000	1.041213e-011	1.435468e-003	1.357779e-002
3.183897034863296e-002	2.865507e+000	1.041285e-011	1.465589e-003	1.354765e-002
3.193662659863296e-002	2.874296e+000	1.041354e-011	1.505216e-003	1.350800e-002
3.203428284863296e-002	2.883085e+000	1.041394e-011	1.552738e-003	1.346047e-002
3.232725159863296e-002	2.909453e+000	1.041391e-011	1.712590e-003	1.330061e-002
3.390370249149013e-002	3.051333e+000	1.041332e-011	2.603052e-003	1.241014e-002
3.548015338434730e-002	3.193214e+000	1.041287e-011	3.526595e-003	1.148660e-002
3.705660427720446e-002	3.335094e+000	1.041258e-011	4.483219e-003	1.052996e-002
3.863305517006163e-002	3.476975e+000	1.041245e-011	5.472925e-003	9.540251e-003
4.020950606291879e-002	3.618856e+000	1.041247e-011	6.495712e-003	8.517456e-003
4.178595695577596e-002	3.760736e+000	1.041264e-011	7.551580e-003	7.461579e-003
4.336240784863312e-002	3.902617e+000	1.041297e-011	8.640530e-003	6.372620e-003
4.376698374149027e-002	3.939028e+000	1.041356e-011	8.926834e-003	6.086314e-003
4.417155963434742e-002	3.975440e+000	1.041373e-011	9.215482e-003	5.797663e-003
4.457613552720457e-002	4.011852e+000	1.041351e-011	9.506476e-003	5.506667e-003
4.498071142006171e-002	4.048264e+000	1.041287e-011	9.799814e-003	5.213327e-003
4.538528731291887e-002	4.084676e+000	1.041183e-011	1.009550e-002	4.917641e-003
4.578986320577601e-002	4.121087e+000	1.041038e-011	1.039353e-002	4.619611e-003
4.619443909863316e-002	4.157499e+000	1.040853e-011	1.069390e-002	4.319236e-003
4.638975159863316e-002	4.175077e+000	1.039579e-011	1.083963e-002	4.173507e-003
4.648740784863317e-002	4.183867e+000	1.037936e-011	1.091267e-002	4.100459e-003
4.658506409863317e-002	4.192656e+000	1.034746e-011	1.098584e-002	4.027291e-003
4.668272034863317e-002	4.201445e+000	1.028597e-011	1.105912e-002	3.954005e-003
4.678037659863317e-002	4.210234e+000	1.016921e-011	1.113253e-002	3.880604e-003
4.687803284863317e-002	4.219023e+000	9.953652e-012	1.120604e-002	3.807088e-003
4.697568909863317e-002	4.227812e+000	9.574338e-012	1.127967e-002	3.733461e-003
4.707334534863317e-002	4.236601e+000	8.955218e-012	1.135340e-002	3.659724e-003
4.717100159863318e-002	4.245390e+000	8.044832e-012	1.142725e-002	3.585881e-003
4.726865784863318e-002	4.254179e+000	6.865961e-012	1.150119e-002	3.511934e-003
4.736631409863318e-002	4.262968e+000	5.534898e-012	1.157524e-002	3.437886e-003
4.746397034863318e-002	4.271757e+000	4.218248e-012	1.164939e-002	3.363740e-003
4.756162659863318e-002	4.280546e+000	3.058771e-012	1.172363e-002	3.289500e-003
4.765928284863318e-002	4.289335e+000	2.130078e-012	1.179796e-002	3.215169e-003
4.775693909863318e-002	4.298124e+000	1.438864e-012	1.187237e-002	3.140752e-003
4.785459534863319e-002	4.306913e+000	9.518504e-013	1.194687e-002	3.066252e-003
4.795225159863319e-002	4.315702e+000	6.219351e-013	1.202145e-002	2.991674e-003
4.814756409863319e-002	4.333281e+000	2.622098e-013	1.217082e-002	2.842304e-003
4.844053284863319e-002	4.359648e+000	6.638293e-014	1.239532e-002	2.617801e-003
4.855213999149034e-002	4.369692e+000	-9.237567e-014	1.248099e-002	2.532128e-003
4.866374713434749e-002	4.379737e+000	-1.627828e-013	1.256667e-002	2.446449e-003
4.877535427720463e-002	4.389782e+000	-1.448385e-013	1.265236e-002	2.360763e-003
4.888696142006177e-002	4.399826e+000	-3.854271e-014	1.273805e-002	2.275071e-003
4.899856856291891e-002	4.409871e+000	1.561045e-013	1.282375e-002	2.189371e-003
4.911017570577606e-002	4.419916e+000	4.391032e-013	1.290945e-002	2.103665e-003
4.922178284863320e-002	4.429960e+000	8.104534e-013	1.299517e-002	2.017953e-003
4.931943909863321e-002	4.438749e+000	2.662476e-010	1.307008e-002	1.943037e-003
4.941709534863321e-002	4.447538e+000	2.606072e-009	1.314493e-002	1.868180e-003
4.951475159863321e-002	4.456327e+000	7.321247e-009	1.321971e-002	1.793401e-003
4.961240784863321e-002	4.465117e+000	1.432298e-008	1.329438e-002	1.718718e-003
4.971006409863321e-002	4.473906e+000	2.699912e-008	1.336894e-002	1.644153e-003
4.980772034863321e-002	4.482695e+000	5.083677e-008	1.344334e-002	1.569730e-003
4.990537659863321e-002	4.491484e+000	9.535658e-008	1.351755e-002	1.495475e-003
5.000303284863322e-002	4.500273e+000	1.788684e-007	1.359152e-002	1.421418e-003
5.010068909863322e-002	4.509062e+000	3.352219e-007	1.366519e-002	1.347593e-003
5.019834534863322e-002	4.517851e+000	6.282214e-007	1.373845e-002	1.274038e-003
5.029600159863322e-002	4.526640e+000	1.174881e-006	1.381115e-002	1.200796e-003
5.039365784863322e-002	4.535429e+000	2.190293e-006	1.388301e-002	1.127917e-003
5.049131409863322e-002	4.544218e+000	4.052454e-006	1.395361e-002	1.055456e-003
5.058897034863322e-002	4.553007e+000	7.402438e-006	1.402224e-002	9.834812e-004
5.068662659863323e-002	4.561796e+000	1.322612e-005	1.408784e-002	9.120673e-004
5.078428284863323e-002	4.570585e+000	2.286833e-005	1.414897e-002	8.413048e-004
5.088193909863323e-002	4.579374e+000	3.782333e-005	1.420403e-002	7.712998e-004
5.097959534863323e-002	4.588163e+000	5.934867e-005	1.425164e-002	7.021792e-004
5.107725159863323e-002	4.596952e+000	8.806710e-005	1.429102e-002	6.340956e-004
5.117490784863323e-002	4.605742e+000	1.238479e-004	1.432211e-002	5.672356e-004
5.127256409863323e-002	4.614531e+000	1.660084e-004	1.434537e-002	5.018285e-004
5.137022034863324e-002	4.623320e+000	2.136136e-004	1.436144e-002	4.381584e-004
5.146787659863324e-002	4.632109e+000	2.657300e-004	1.437092e-002	3.765808e-004
5.156553284863324e-002	4.640898e+000	3.215319e-004	1.437416e-002	3.175436e-004
5.166318909863324e-002	4.649687e+000	3.803424e-004	1.437129e-002	2.616111e-004
5.176084534863324e-002	4.658476e+000	4.416167e-004	1.436216e-002	2.094864e-004
5.185850159863324e-002	4.667265e+000	5.049239e-004	1.434633e-002	1.620184e-004
5.195615784863324e-002	4.676054e+000	5.699206e-004	1.432320e-002	1.201625e-004
5.205381409863324e-002	4.684843e+000	6.363331e-004	1.429212e-002	8.484788e-005
5.215147034863325e-002	4.693632e+000	7.039403e-004	1.425265e-002	5.672166e-005
5.224912659863325e-002	4.702421e+000	7.725626e-004	1.420493e-002	3.583507e-005
5.234678284863325e-002	4.711210e+000	8.420512e-004	1.414981e-002	2.147382e-005
5.244443909863325e-002	4.719999e+000	9.122827e-004	1.408875e-002	1.231457e-005
5.254209534863325e-002	4.728788e+000	9.831535e-004	1.402336e-002	6.837709e-006
5.263975159863325e-002	4.737577e+000	1.054576e-003	1.395506e-002	3.717535e-006
5.273740784863325e-002	4.746367e+000	1.126476e-003	1.388489e-002	1.996325e-006
5.283506409863326e-002	4.755156e+000	1.198788e-003	1.381351e-002	1.065069e-006
5.293272034863326e-002	4.763945e+000	1.271457e-003	1.374134e-002	5.665886e-007
5.303037659863326e-002	4.772734e+000	1.344435e-003	1.366863e-002	3.012085e-007
5.312803284863326e-002	4.781523e+000	1.417680e-003	1.359552e-002	1.602593e-007
5.322568909863326e-002	4.790312e+000	1.491154e-003	1.352213e-002	8.544534e-008
5.332334534863326e-002	4.799101e+000	1.564824e-003	1.344850e-002	4.571930e-008
5.342100159863326e-002	4.807890e+000	1.638661e-003	1.337468e-002	2.460452e-008
5.351865784863327e-002	4.816679e+000	1.712638e-003	1.330072e-002	1.336301e-008
5.361631409863327e-002	4.825468e+000	1.786733e-003	1.322663e-002	7.367156e-009
5.381162659863327e-002	4.843046e+000	1.935192e-003	1.307818e-002	2.427705e-009
5.397903731291898e-002	4.858113e+000	2.062770e-003	1.295060e-002	1.583366e-009
5.414644802720470e-002	4.873180e+000	2.190312e-003	1.282306e-002	9.157301e-010
5.431385874149042e-002	4.888247e+000	2.317817e-003	1.269555e-002	4.247970e-010
5.448126945577614e-002	4.903314e+000	2.445286e-003	1.256809e-002	1.105668e-010
5.464868017006185e-002	4.918381e+000	2.572719e-003	1.244065e-002	-2.696030e-011
5.481609088434757e-002	4.933448e+000	2.700116e-003	1.231326e-002	1.221555e-011
5.498350159863329e-002	4.948515e+000	2.827476e-003	1.218590e-002	2.280944e-010
5.517881409863329e-002	4.966093e+000	2.975705e-003	1.203767e-002	2.141097e-010
5.527647034863329e-002	4.974882e+000	3.049716e-003	1.196366e-002	2.065647e-010
5.537412659863329e-002	4.983671e+000	3.123650e-003	1.188972e-002	1.979756e-010
5.547178284863329e-002	4.992460e+000	3.197505e-003	1.181587e-002	1.878953e-010
5.556943909863329e-002	5.001249e+000	3.271275e-003	1.174210e-002	1.759446e-010
5.566709534863330e-002	5.010038e+000	3.344956e-003	1.166842e-002	1.619241e-010
5.576475159863330e-002	5.018827e+000	3.418545e-003	1.159483e-002	1.460091e-010
5.586240784863330e-002	5.027617e+000	3.492039e-003	1.152134e-002	1.289209e-010
5.596006409863330e-002	5.036406e+000	3.565434e-003	1.144794e-002	1.118553e-010
5.605772034863330e-002	5.045195e+000	3.638728e-003	1.137465e-002	9.608640e-011
5.615537659863330e-002	5.053984e+000	3.711917e-003	1.130146e-002	8.248656e-011
5.625303284863330e-002	5.062773e+000	3.784999e-003	1.122838e-002	7.131848e-011
5.635068909863331e-002	5.071562e+000	3.857972e-003	1.115541e-002	6.238424e-011
5.644834534863331e-002	5.080351e+000	3.930833e-003	1.108254e-002	5.528981e-011
5.654600159863331e-002	5.089140e+000	4.003580e-003	1.100980e-002	4.962925e-011
5.664365784863331e-002	5.097929e+000	4.076212e-003	1.093717e-002	4.506239e-011
5.683897034863331e-002	5.115507e+000	4.221122e-003	1.079226e-002	3.822900e-011
5.729934981291903e-002	5.156941e+000	4.560913e-003	1.045247e-002	3.115575e-011
5.775972927720476e-002	5.198375e+000	4.897714e-003	1.011567e-002	2.531975e-011
5.822010874149047e-002	5.239810e+000	5.231525e-003	9.781856e-003	2.072100e-011
5.868048820577620e-002	5.281244e+000	5.562346e-003	9.451036e-003	1.735949e-011
5.914086767006192e-002	5.322678e+000	5.890176e-003	9.123207e-003	1.523523e-011
5.960124713434764e-002	5.364112e+000	6.215016e-003	8.798367e-003	1.434822e-011
6.006162659863336e-002	5.405546e+000	6.536867e-003	8.476518e-003	1.469845e-011
6.165202838434758e-002	5.548682e+000	7.621659e-003	7.391727e-003	1.330874e-011
6.324243017006180e-002	5.691819e+000	8.673282e-003	6.340107e-003	1.218449e-011
6.483283195577602e-002	5.834955e+000	9.691734e-003	5.321658e-003	1.132571e-011
6.642323374149024e-002	5.978091e+000	1.067702e-002	4.336379e-003	1.073240e-011
6.801363552720446e-002	6.121227e+000	1.162913e-002	3.384271e-003	1.040456e-011
6.960403731291867e-002	6.264363e+000	1.254807e-002	2.465334e-003	1.034218e-011
7.119443909863289e-002	6.407499e+000	1.343384e-002	1.579567e-003	1.054528e-011
7.129209534863289e-002	6.416288e+000	1.348342e-002	1.529982e-003	1.054196e-011
7.138975159863288e-002	6.425077e+000	1.352713e-002	1.486250e-003	1.053900e-011
7.148740784863288e-002	6.433867e+000	1.356227e-002	1.451096e-003	1.053624e-011
7.158506409863287e-002	6.442656e+000	1.358840e-002	1.424948e-003	1.053346e-011
7.168272034863286e-002	6.451445e+000	1.360742e-002	1.405921e-003	1.053059e-011
7.178037659863286e-002	6.460234e+000	1.362164e-002	1.391691e-003	1.052766e-011
7.187803284863285e-002	6.469023e+000	1.363273e-002	1.380599e-003	1.052471e-011
7.207334534863284e-002	6.486601e+000	1.364920e-002	1.364125e-003	1.051880e-011
7.236631409863283e-002	6.512968e+000	1.366611e-002	1.347202e-003	1.051041e-011
7.257557749148996e-002	6.531802e+000	1.367440e-002	1.338920e-003	1.050487e-011
7.278484088434709e-002	6.550635e+000	1.368186e-002	1.331457e-003	1.049962e-011
7.299410427720422e-002	6.569469e+000	1.368850e-002	1.324813e-003	1.049464e-011
7.320336767006135e-002	6.588303e+000	1.369432e-002	1.318988e-003	1.048995e-011
7.341263106291848e-002	6.607137e+000	1.369933e-002	1.313982e-003	1.048553e-011
7.362189445577561e-002	6.625970e+000	1.370351e-002	1.309795e-003	1.048139e-011
7.383115784863274e-002	6.644804e+000	1.370688e-002	1.306427e-003	1.047752e-011
7.436129177720414e-002	6.692516e+000	1.371459e-002	1.298722e-003	1.046884e-011
7.489142570577553e-002	6.740228e+000	1.372154e-002	1.291768e-003	1.046105e-011
7.542155963434694e-002	6.787940e+000	1.372774e-002	1.285566e-003	1.045416e-011
7.595169356291834e-002	6.835652e+000	1.373319e-002	1.280115e-003	1.044816e-011
7.648182749148974e-002	6.883364e+000	1.373789e-002	1.275416e-003	1.044306e-011
7.701196142006113e-002	6.931076e+000	1.374184e-002	1.271469e-003	1.043885e-011
7.754209534863253e-002	6.978788e+000	1.374504e-002	1.268273e-003	1.043554e-011
7.882557749148961e-002	7.094302e+000	1.375208e-002	1.261229e-003	1.042963e-011
8.010905963434667e-002	7.209815e+000	1.375846e-002	1.254852e-003	1.042469e-011
8.139254177720375e-002	7.325329e+000	1.376416e-002	1.249143e-003	1.042072e-011
8.267602392006081e-002	7.440842e+000	1.376921e-002	1.244102e-003	1.041772e-011
8.395950606291788e-002	7.556355e+000	1.377358e-002	1.239728e-003	1.041570e-011
8.524298820577496e-002	7.671869e+000	1.377729e-002	1.236021e-003	1.041464e-011
8.652647034863202e-002	7.787382e+000	1.378033e-002	1.232982e-003	1.041455e-011
8.814477392006050e-002	7.933029e+000	1.378410e-002	1.229211e-003	1.041408e-011
8.976307749148899e-002	8.078677e+000	1.378762e-002	1.225691e-003	1.041371e-011
9.138138106291746e-002	8.224324e+000	1.379088e-002	1.222424e-003	1.041346e-011
9.299968463434594e-002	8.369971e+000	1.379390e-002	1.219407e-003	1.041330e-011
9.461798820577443e-002	8.515619e+000	1.379666e-002	1.216643e-003	1.041326e-011
9.623629177720290e-002	8.661266e+000	1.379918e-002	1.214130e-003	1.041332e-011
9.785459534863138e-002	8.806913e+000	1.380144e-002	1.211868e-003	1.041349e-011
9.795225159863137e-002	8.815702e+000	1.380158e-002	1.211731e-003	1.041349e-011
9.990537659863126e-002	8.991484e+000	1.380421e-002	1.209097e-003	1.041350e-011
1.000000000000000e-001	9.000000e+000	1.380433e-002	1.208974e-003	1.041349e-011
