time	V(r_pot_1)	V(vset)
0.000000000000000e+000	5.000200e+004	4.446915e+000
1.616781242646329e-002	4.587837e+004	4.100941e+000
3.233562485292658e-002	4.184669e+004	3.762692e+000
4.850343727938988e-002	3.790697e+004	3.432169e+000
6.467124970585317e-002	3.405921e+004	3.109373e+000
8.083906213231645e-002	3.030340e+004	2.794302e+000
9.700687455877975e-002	2.663954e+004	2.486957e+000
1.131746869852430e-001	2.306764e+004	2.187338e+000
1.255783031302083e-001	2.047337e+004	1.969735e+000
1.379819192751736e-001	1.801613e+004	1.763628e+000
1.503855354201389e-001	1.569594e+004	1.569017e+000
1.627891515651042e-001	1.351279e+004	1.385902e+000
1.751927677100695e-001	1.146669e+004	1.214284e+000
1.875963838550347e-001	9.557624e+003	1.054161e+000
2.000000000000000e-001	7.785604e+003	9.055349e-001
2.092773437500000e-001	6.577393e+003	8.042143e-001
2.185546875000000e-001	5.468981e+003	7.112620e-001
2.278320312500000e-001	4.460367e+003	6.266779e-001
2.371093750000000e-001	3.551552e+003	5.504619e-001
2.463867187500000e-001	2.742535e+003	4.826142e-001
2.556640625000000e-001	2.033318e+003	4.231347e-001
2.649414062500000e-001	1.423898e+003	3.720234e-001
2.703822544642857e-001	1.117920e+003	3.463630e-001
2.758231026785715e-001	8.489239e+002	3.238040e-001
2.812639508928572e-001	6.169093e+002	3.043465e-001
2.867047991071429e-001	4.218765e+002	2.879904e-001
2.921456473214286e-001	2.638254e+002	2.747357e-001
2.975864955357143e-001	1.427561e+002	2.645824e-001
3.030273437500000e-001	5.866843e+001	2.575306e-001
3.040039062500000e-001	4.758818e+001	2.566013e-001
3.049804687500000e-001	3.771162e+001	2.557730e-001
3.059570312500000e-001	2.903898e+001	2.550457e-001
3.069335937500000e-001	2.157047e+001	2.544194e-001
3.079101562500000e-001	1.530627e+001	2.538940e-001
3.088867187500000e-001	1.024653e+001	2.534697e-001
3.098632812500000e-001	6.391379e+000	2.531464e-001
3.108398437500000e-001	3.740905e+000	2.529241e-001
3.118164062500000e-001	2.295172e+000	2.528028e-001
3.127929687500000e-001	2.054215e+000	2.527826e-001
3.137695312500000e-001	3.018040e+000	2.528634e-001
3.147460937500000e-001	5.186625e+000	2.530453e-001
3.157226562500000e-001	8.559915e+000	2.533281e-001
3.166992187500000e-001	1.313783e+001	2.537120e-001
3.176757812500000e-001	1.892026e+001	2.541969e-001
3.186523437500000e-001	2.590707e+001	2.547829e-001
3.196289062500000e-001	3.409808e+001	2.554698e-001
3.206054687500000e-001	4.349310e+001	2.562577e-001
3.215820312500000e-001	5.409191e+001	2.571465e-001
3.225585937500000e-001	6.589424e+001	2.581362e-001
3.235351562500000e-001	7.889983e+001	2.592269e-001
3.245117187500000e-001	9.310833e+001	2.604184e-001
3.254882812500000e-001	1.085194e+002	2.617109e-001
3.264648437500000e-001	1.251327e+002	2.631041e-001
3.274414062500000e-001	1.429479e+002	2.645981e-001
3.284179687500000e-001	1.619644e+002	2.661928e-001
3.293945312500000e-001	1.821818e+002	2.678883e-001
3.303710937500000e-001	2.035997e+002	2.696844e-001
3.313476562500000e-001	2.262175e+002	2.715812e-001
3.333007812500000e-001	2.750507e+002	2.756765e-001
3.352539062500000e-001	3.286767e+002	2.801737e-001
3.372070312500000e-001	3.870903e+002	2.850723e-001
3.391601562500000e-001	4.502859e+002	2.903721e-001
3.420898437500000e-001	5.540320e+002	2.990724e-001
3.450195312500000e-001	6.685013e+002	3.086721e-001
3.479492187500000e-001	7.936690e+002	3.191690e-001
3.508789062500000e-001	9.295079e+002	3.305609e-001
3.596679687500000e-001	1.404209e+003	3.703703e-001
3.684570312500000e-001	1.970454e+003	4.178577e-001
3.772460937500000e-001	2.628243e+003	4.730228e-001
3.860351562500000e-001	3.377578e+003	5.358658e-001
3.948242187500000e-001	4.218456e+003	6.063867e-001
4.036132812500000e-001	5.150880e+003	6.845854e-001
4.124023437500000e-001	6.174847e+003	7.704619e-001
4.246791294642857e-001	7.761095e+003	9.034956e-001
4.369559151785715e-001	9.490087e+003	1.048505e+000
4.492327008928572e-001	1.136182e+004	1.205490e+000
4.615094866071429e-001	1.337630e+004	1.374451e+000
4.737862723214286e-001	1.553353e+004	1.555387e+000
4.860630580357143e-001	1.783350e+004	1.748299e+000
4.983398437500000e-001	2.027621e+004	1.953187e+000
5.139648437500000e-001	2.357779e+004	2.230122e+000
5.295898437500000e-001	2.698775e+004	2.516160e+000
5.452148437500000e-001	3.050609e+004	2.811299e+000
5.608398437500000e-001	3.413281e+004	3.115542e+000
5.764648437500000e-001	3.786790e+004	3.428887e+000
5.920898437500000e-001	4.171138e+004	3.751334e+000
6.077148437500000e-001	4.566323e+004	4.082884e+000
6.275251116071429e-001	5.075617e+004	4.510193e+000
6.473353794642857e-001	5.572234e+004	4.926883e+000
6.671456473214286e-001	6.056175e+004	5.332953e+000
6.869559151785714e-001	6.527440e+004	5.728405e+000
7.067661830357143e-001	6.986029e+004	6.113238e+000
7.265764508928572e-001	7.431941e+004	6.487452e+000
7.463867187500000e-001	7.865177e+004	6.851046e+000
7.542550223214285e-001	8.025540e+004	6.985633e+000
7.621233258928571e-001	8.180588e+004	7.115762e+000
7.699916294642857e-001	8.330323e+004	7.241434e+000
7.778599330357143e-001	8.474745e+004	7.362648e+000
7.857282366071429e-001	8.613853e+004	7.479404e+000
7.935965401785715e-001	8.747648e+004	7.591703e+000
8.014648437500000e-001	8.876129e+004	7.699543e+000
8.258789062500000e-001	9.240588e+004	8.005461e+000
8.502929687500000e-001	9.533441e+004	8.251275e+000
8.747070312500000e-001	9.754689e+004	8.436986e+000
8.991210937500000e-001	9.904330e+004	8.562593e+000
9.235351562500000e-001	9.982367e+004	8.628096e+000
9.479492187500000e-001	9.988797e+004	8.633496e+000
9.723632812500000e-001	9.923622e+004	8.578792e+000
9.733398437500000e-001	9.919284e+004	8.575150e+000
9.997070312500000e-001	9.757753e+004	8.439575e+000
1.000000000000000e+000	-1.#IND00e+000	-1.#IND00e+000
