time	V(n015)	V(n017)
0.000000000000000e+000	2.267234e-002	-1.100876e-006
1.581132065243937e-007	2.265269e-002	-1.100876e-006
3.162264130487875e-007	2.251737e-002	-1.100877e-006
4.743396195731813e-007	2.226639e-002	-1.100877e-006
6.324528260975750e-007	2.189973e-002	-1.100877e-006
7.905660326219687e-007	2.141742e-002	-1.100877e-006
9.486792391463625e-007	2.081943e-002	-1.100877e-006
1.106792445670756e-006	2.010578e-002	-1.100877e-006
1.988778522732485e-006	1.500615e-002	-1.100878e-006
2.998421350464264e-006	7.058126e-003	-1.100880e-006
4.084011293997274e-006	-3.569872e-003	-1.100882e-006
5.140284089392240e-006	-1.554368e-002	-1.100884e-006
6.657838008740953e-006	-3.464060e-002	-1.100888e-006
8.805940607545673e-006	-6.369632e-002	-1.100894e-006
1.140297674783288e-005	-1.005521e-001	-1.100901e-006
1.459105548710395e-005	-1.470221e-001	-1.100911e-006
3.288593499530018e-005	-4.163460e-001	-1.100966e-006
4.813183382610047e-005	-6.360091e-001	-1.101012e-006
7.862363148770105e-005	-1.052886e+000	-1.101100e-006
1.274517564877010e-004	-1.650329e+000	-1.101228e-006
1.762798814877010e-004	-2.148737e+000	-1.101337e-006
2.068562974167693e-004	-2.391128e+000	-1.101390e-006
2.281503399066087e-004	-2.517301e+000	-1.101418e-006
2.447562022329676e-004	-2.589591e+000	-1.101434e-006
2.630503814640291e-004	-2.642428e+000	-1.101446e-006
2.862409922768981e-004	-2.668814e+000	-1.101452e-006
3.238156053796835e-004	-2.627564e+000	-1.101443e-006
3.726437303796835e-004	-2.462607e+000	-1.101406e-006
4.039783565794073e-004	-2.288933e+000	-1.101367e-006
4.442668529615555e-004	-1.997268e+000	-1.101303e-006
4.828990360448417e-004	-1.680474e+000	-1.101234e-006
5.285797861518663e-004	-1.291982e+000	-1.101151e-006
5.774079111518664e-004	-9.061584e-001	-1.101069e-006
6.262360361518664e-004	-5.967422e-001	-1.101004e-006
6.750641611518664e-004	-3.929271e-001	-1.100962e-006
7.072297820627593e-004	-3.290674e-001	-1.100948e-006
7.229958115133549e-004	-3.283698e-001	-1.100948e-006
7.408403726456530e-004	-3.553567e-001	-1.100954e-006
7.615923597396365e-004	-4.159597e-001	-1.100966e-006
7.838696156194645e-004	-5.204736e-001	-1.100988e-006
8.199902588456822e-004	-7.708836e-001	-1.101040e-006
8.688183838456823e-004	-1.230347e+000	-1.101138e-006
9.176465088456823e-004	-1.806703e+000	-1.101262e-006
9.664746338456824e-004	-2.469967e+000	-1.101409e-006
1.012969155137601e-003	-3.138584e+000	-1.101560e-006
1.061797280137601e-003	-3.828836e+000	-1.101720e-006
1.110625405137601e-003	-4.456595e+000	-1.101869e-006
1.159453530137601e-003	-4.982728e+000	-1.101996e-006
1.200366797249958e-003	-5.332185e+000	-1.102082e-006
1.217848884892917e-003	-5.445541e+000	-1.102110e-006
1.234616290703589e-003	-5.526255e+000	-1.102130e-006
1.253030978967866e-003	-5.591266e+000	-1.102146e-006
1.269935284105300e-003	-5.626005e+000	-1.102155e-006
1.297428264864391e-003	-5.629019e+000	-1.102156e-006
1.341789214407316e-003	-5.529875e+000	-1.102131e-006
1.390617339407316e-003	-5.297078e+000	-1.102073e-006
1.439445464407316e-003	-4.955499e+000	-1.101989e-006
1.488273589407316e-003	-4.546058e+000	-1.101890e-006
1.537101714407316e-003	-4.119513e+000	-1.101788e-006
1.585929839407317e-003	-3.728119e+000	-1.101695e-006
1.634757964407317e-003	-3.420751e+000	-1.101624e-006
1.683586089407317e-003	-3.219442e+000	-1.101577e-006
1.709613094088740e-003	-3.167707e+000	-1.101565e-006
1.724790611696699e-003	-3.165602e+000	-1.101565e-006
1.743023153774656e-003	-3.188977e+000	-1.101570e-006
1.762405431683108e-003	-3.240649e+000	-1.101582e-006
1.785192104017436e-003	-3.341701e+000	-1.101606e-006
1.822124207844341e-003	-3.587596e+000	-1.101663e-006
1.870952332844341e-003	-4.033377e+000	-1.101768e-006
1.919780457844341e-003	-4.594601e+000	-1.101902e-006
1.968608582844341e-003	-5.240336e+000	-1.102060e-006
2.017436707844341e-003	-5.921724e+000	-1.102230e-006
2.066264832844340e-003	-6.586457e+000	-1.102400e-006
2.115092957844340e-003	-7.183649e+000	-1.102555e-006
2.163921082844340e-003	-7.701539e+000	-1.102691e-006
2.170024598469340e-003	-7.756529e+000	-1.102706e-006
2.182231629719340e-003	-7.852307e+000	-1.102731e-006
2.191197983021269e-003	-7.917164e+000	-1.102749e-006
2.199529240607053e-003	-7.972481e+000	-1.102763e-006
2.204054141009894e-003	-8.000522e+000	-1.102771e-006
2.208135664761043e-003	-8.024509e+000	-1.102777e-006
2.210916522102748e-003	-8.039980e+000	-1.102781e-006
2.212216038544611e-003	-8.047009e+000	-1.102783e-006
2.212821785462019e-003	-8.050252e+000	-1.102784e-006
2.213280685092206e-003	-8.052689e+000	-1.102785e-006
2.213760157503641e-003	-8.055217e+000	-1.102786e-006
2.214197908715743e-003	-8.057510e+000	-1.102786e-006
2.214781286314933e-003	-8.060546e+000	-1.102787e-006
2.215143178996608e-003	-8.062417e+000	-1.102787e-006
2.218073968529441e-003	-8.077154e+000	-1.102791e-006
2.221004758062275e-003	-8.091206e+000	-1.102795e-006
2.223935547595108e-003	-8.104574e+000	-1.102799e-006
2.226866337127942e-003	-8.117257e+000	-1.102802e-006
2.229797126660775e-003	-8.129256e+000	-1.102805e-006
2.232727916193609e-003	-8.140571e+000	-1.102808e-006
2.235658705726442e-003	-8.151201e+000	-1.102811e-006
2.246926397554467e-003	-8.188336e+000	-1.102821e-006
2.250369995613448e-003	-8.198201e+000	-1.102824e-006
2.251464550395111e-003	-8.201005e+000	-1.102825e-006
2.251860946083429e-003	-8.201982e+000	-1.102825e-006
2.252308912900430e-003	-8.203064e+000	-1.102825e-006
2.252709573701277e-003	-8.204021e+000	-1.102825e-006
2.253109400133187e-003	-8.204960e+000	-1.102826e-006
2.253909052997007e-003	-8.206798e+000	-1.102826e-006
2.254995780462896e-003	-8.209215e+000	-1.102827e-006
2.256647867029050e-003	-8.212697e+000	-1.102828e-006
2.259344913118411e-003	-8.217864e+000	-1.102829e-006
2.264169170423061e-003	-8.225472e+000	-1.102831e-006
2.273144889307787e-003	-8.235927e+000	-1.102834e-006
2.278785098957162e-003	-8.240004e+000	-1.102835e-006
2.283133332479545e-003	-8.241599e+000	-1.102835e-006
2.283366508231046e-003	-8.241639e+000	-1.102835e-006
2.285649713144447e-003	-8.241631e+000	-1.102835e-006
2.296268335404209e-003	-8.235964e+000	-1.102834e-006
2.306886957663969e-003	-8.221721e+000	-1.102830e-006
2.317505579923730e-003	-8.198900e+000	-1.102824e-006
2.328124202183491e-003	-8.167501e+000	-1.102815e-006
2.338742824443252e-003	-8.127526e+000	-1.102805e-006
2.349361446703013e-003	-8.078973e+000	-1.102792e-006
2.359980068962774e-003	-8.021842e+000	-1.102777e-006
2.408808193962774e-003	-7.707006e+000	-1.102693e-006
2.457636318962773e-003	-7.307771e+000	-1.102587e-006
2.506464443962773e-003	-6.858511e+000	-1.102470e-006
2.555292568962773e-003	-6.411126e+000	-1.102354e-006
2.604120693962773e-003	-6.017181e+000	-1.102254e-006
2.652948818962773e-003	-5.723105e+000	-1.102179e-006
2.701776943962772e-003	-5.538771e+000	-1.102133e-006
2.718903706295033e-003	-5.510714e+000	-1.102126e-006
2.735887322906215e-003	-5.513878e+000	-1.102127e-006
2.757005184773994e-003	-5.546512e+000	-1.102135e-006
2.776405251142626e-003	-5.607942e+000	-1.102150e-006
2.807920151354966e-003	-5.774954e+000	-1.102192e-006
2.856748276354966e-003	-6.151742e+000	-1.102288e-006
2.905576401354965e-003	-6.648382e+000	-1.102415e-006
2.954404526354965e-003	-7.241897e+000	-1.102570e-006
3.052060776354965e-003	-8.526873e+000	-1.102913e-006
3.100888901354965e-003	-9.114747e+000	-1.103073e-006
3.149717026354964e-003	-9.601994e+000	-1.103207e-006
3.198545151354964e-003	-9.977682e+000	-1.103310e-006
3.216488451103159e-003	-1.007677e+001	-1.103338e-006
3.232980684019979e-003	-1.013902e+001	-1.103355e-006
3.248060148802034e-003	-1.017756e+001	-1.103366e-006
3.264278963078556e-003	-1.019729e+001	-1.103371e-006
3.288238669128951e-003	-1.018487e+001	-1.103368e-006
3.327034248309076e-003	-1.007768e+001	-1.103338e-006
3.375862373309076e-003	-9.818941e+000	-1.103266e-006
3.424690498309076e-003	-9.443643e+000	-1.103163e-006
3.473518623309076e-003	-8.985141e+000	-1.103037e-006
3.522346748309075e-003	-8.492805e+000	-1.102904e-006
3.571174873309075e-003	-8.018973e+000	-1.102776e-006
3.620002998309075e-003	-7.614064e+000	-1.102668e-006
3.668831123309075e-003	-7.310993e+000	-1.102588e-006
3.704011862984037e-003	-7.168983e+000	-1.102550e-006
3.720578420311971e-003	-7.134479e+000	-1.102541e-006
3.737910235142656e-003	-7.126549e+000	-1.102539e-006
3.760499155176999e-003	-7.148276e+000	-1.102545e-006
3.782091185308869e-003	-7.206813e+000	-1.102560e-006
3.817118319325824e-003	-7.379914e+000	-1.102606e-006
3.865946444325824e-003	-7.740526e+000	-1.102702e-006
3.914774569325825e-003	-8.217620e+000	-1.102829e-006
3.963602694325824e-003	-8.782976e+000	-1.102982e-006
4.012430819325824e-003	-9.388378e+000	-1.103148e-006
4.061258944325824e-003	-9.981668e+000	-1.103312e-006
4.110087069325824e-003	-1.052953e+001	-1.103464e-006
4.129055043279796e-003	-1.071763e+001	-1.103516e-006
4.141088477543934e-003	-1.081906e+001	-1.103544e-006
4.146362380812437e-003	-1.085223e+001	-1.103553e-006
4.151672647423124e-003	-1.087269e+001	-1.103559e-006
4.156950277553847e-003	-1.088491e+001	-1.103562e-006
4.162153934982239e-003	-1.089284e+001	-1.103565e-006
4.169413030862735e-003	-1.090036e+001	-1.103567e-006
4.183329408916537e-003	-1.090987e+001	-1.103570e-006
4.200390983187172e-003	-1.091696e+001	-1.103571e-006
4.227547280433648e-003	-1.092320e+001	-1.103573e-006
4.244621832093594e-003	-1.092514e+001	-1.103574e-006
4.263000391568094e-003	-1.092548e+001	-1.103574e-006
4.286159697934095e-003	-1.092349e+001	-1.103573e-006
4.323684547890329e-003	-1.091084e+001	-1.103570e-006
4.366976915725565e-003	-1.087288e+001	-1.103559e-006
4.380070263512391e-003	-1.084254e+001	-1.103551e-006
4.386156457755462e-003	-1.081483e+001	-1.103543e-006
4.390853965968397e-003	-1.078455e+001	-1.103534e-006
4.395549565633324e-003	-1.074873e+001	-1.103524e-006
4.399417459329263e-003	-1.071638e+001	-1.103516e-006
4.404349659358326e-003	-1.067295e+001	-1.103503e-006
4.408868972327579e-003	-1.063178e+001	-1.103492e-006
4.415737880812538e-003	-1.056722e+001	-1.103474e-006
4.424429730187424e-003	-1.048242e+001	-1.103450e-006
4.441813428937196e-003	-1.030371e+001	-1.103401e-006
4.476580826436739e-003	-9.927073e+000	-1.103296e-006
4.525408951436739e-003	-9.386675e+000	-1.103147e-006
4.574237076436739e-003	-8.870910e+000	-1.103006e-006
4.623065201436739e-003	-8.426846e+000	-1.102886e-006
4.671893326436739e-003	-8.085269e+000	-1.102793e-006
4.705185994808732e-003	-7.924272e+000	-1.102750e-006
4.721459648338485e-003	-7.876965e+000	-1.102738e-006
4.738977026705706e-003	-7.853723e+000	-1.102731e-006
4.760897429289280e-003	-7.855531e+000	-1.102732e-006
4.782739137219729e-003	-7.895547e+000	-1.102743e-006
4.818164976292546e-003	-8.039267e+000	-1.102781e-006
4.866993101292546e-003	-8.356693e+000	-1.102867e-006
4.915821226292545e-003	-8.790088e+000	-1.102984e-006
4.964649351292545e-003	-9.310652e+000	-1.103127e-006
5.013477476292545e-003	-9.870045e+000	-1.103281e-006
5.062305601292545e-003	-1.042723e+001	-1.103435e-006
5.081454729230025e-003	-1.063465e+001	-1.103493e-006
5.093672332794353e-003	-1.075772e+001	-1.103527e-006
5.100813347873344e-003	-1.082239e+001	-1.103545e-006
5.104845145244471e-003	-1.085070e+001	-1.103553e-006
5.109634873007477e-003	-1.087255e+001	-1.103559e-006
5.114085943735598e-003	-1.088501e+001	-1.103563e-006
5.119109538705640e-003	-1.089412e+001	-1.103565e-006
5.124967590763065e-003	-1.090147e+001	-1.103567e-006
5.136683694877916e-003	-1.091137e+001	-1.103570e-006
5.151780759334874e-003	-1.091953e+001	-1.103572e-006
5.177038214663181e-003	-1.092719e+001	-1.103574e-006
5.212754593004367e-003	-1.093303e+001	-1.103576e-006
5.228347441960072e-003	-1.093427e+001	-1.103576e-006
5.244800129287227e-003	-1.093462e+001	-1.103576e-006
5.263066723190372e-003	-1.093426e+001	-1.103576e-006
5.286267567270207e-003	-1.093230e+001	-1.103576e-006
5.323858446590891e-003	-1.092221e+001	-1.103573e-006
5.372686571590891e-003	-1.088941e+001	-1.103564e-006
5.387709037212576e-003	-1.086104e+001	-1.103556e-006
5.395307949083480e-003	-1.083029e+001	-1.103547e-006
5.399678692229990e-003	-1.080246e+001	-1.103539e-006
5.403811504192717e-003	-1.076877e+001	-1.103530e-006
5.407542357117308e-003	-1.073420e+001	-1.103521e-006
5.411937863768111e-003	-1.069058e+001	-1.103508e-006
5.415972083262354e-003	-1.064902e+001	-1.103497e-006
5.421040524289445e-003	-1.059543e+001	-1.103482e-006
5.427645218309614e-003	-1.052387e+001	-1.103462e-006
5.438434469804770e-003	-1.040316e+001	-1.103428e-006
5.460012972795081e-003	-1.015145e+001	-1.103358e-006
5.503169978775703e-003	-9.632388e+000	-1.103215e-006
5.551998103775703e-003	-9.052943e+000	-1.103056e-006
5.600826228775703e-003	-8.523442e+000	-1.102912e-006
5.649654353775703e-003	-8.090350e+000	-1.102795e-006
5.698482478775703e-003	-7.765275e+000	-1.102708e-006
5.716441691177260e-003	-7.683661e+000	-1.102686e-006
5.732924541434367e-003	-7.636838e+000	-1.102674e-006
5.747941354226203e-003	-7.612051e+000	-1.102667e-006
5.764234803445438e-003	-7.606454e+000	-1.102666e-006
5.788166874428536e-003	-7.638734e+000	-1.102674e-006
5.826918636986943e-003	-7.775829e+000	-1.102711e-006
5.875746761986943e-003	-8.068934e+000	-1.102789e-006
5.924574886986942e-003	-8.474648e+000	-1.102899e-006
5.973403011986942e-003	-8.959452e+000	-1.103030e-006
6.022231136986942e-003	-9.473980e+000	-1.103171e-006
6.071059261986942e-003	-9.965890e+000	-1.103307e-006
6.119887386986942e-003	-1.038470e+001	-1.103423e-006
6.168715511986942e-003	-1.071044e+001	-1.103514e-006
6.186865970332549e-003	-1.079605e+001	-1.103538e-006
6.197148898933235e-003	-1.082639e+001	-1.103546e-006
6.208202193065633e-003	-1.084648e+001	-1.103552e-006
6.215290796622136e-003	-1.085408e+001	-1.103554e-006
6.224852541988677e-003	-1.085947e+001	-1.103555e-006
6.233743799475487e-003	-1.086110e+001	-1.103556e-006
6.248163554798017e-003	-1.085745e+001	-1.103555e-006
6.264317401744389e-003	-1.084570e+001	-1.103552e-006
6.272214233848652e-003	-1.083521e+001	-1.103549e-006
6.278630848865869e-003	-1.082236e+001	-1.103545e-006
6.285058250353593e-003	-1.080539e+001	-1.103540e-006
6.291114903813930e-003	-1.078541e+001	-1.103535e-006
6.297415461932070e-003	-1.076032e+001	-1.103528e-006
6.305355831414689e-003	-1.072337e+001	-1.103517e-006
6.314082340055787e-003	-1.067722e+001	-1.103505e-006
6.322355614903220e-003	-1.062813e+001	-1.103491e-006
6.332437308537855e-003	-1.056070e+001	-1.103472e-006
6.349664608432298e-003	-1.042733e+001	-1.103435e-006
6.380434041812598e-003	-1.014284e+001	-1.103356e-006
6.429262166812597e-003	-9.609618e+000	-1.103209e-006
6.478090291812597e-003	-9.009656e+000	-1.103044e-006
6.526918416812597e-003	-8.380688e+000	-1.102874e-006
6.575746541812597e-003	-7.775116e+000	-1.102711e-006
6.624574666812597e-003	-7.242963e+000	-1.102570e-006
6.673402791812597e-003	-6.813930e+000	-1.102458e-006
6.705762229575955e-003	-6.599490e+000	-1.102402e-006
6.721892478114495e-003	-6.523585e+000	-1.102383e-006
6.739501573275994e-003	-6.468221e+000	-1.102368e-006
6.761093146702830e-003	-6.430725e+000	-1.102359e-006
6.783057534157680e-003	-6.431111e+000	-1.102359e-006
6.818679169170663e-003	-6.511085e+000	-1.102379e-006
6.867507294170663e-003	-6.740406e+000	-1.102439e-006
6.916335419170663e-003	-7.085865e+000	-1.102529e-006
6.965163544170662e-003	-7.518424e+000	-1.102643e-006
7.013991669170662e-003	-7.989699e+000	-1.102768e-006
7.062819794170662e-003	-8.447518e+000	-1.102891e-006
7.111647919170662e-003	-8.840789e+000	-1.102998e-006
7.160476044170662e-003	-9.131103e+000	-1.103077e-006
7.200768261712461e-003	-9.280066e+000	-1.103118e-006
7.218149040080377e-003	-9.308477e+000	-1.103126e-006
7.234977720059530e-003	-9.307809e+000	-1.103125e-006
7.253672674539501e-003	-9.282722e+000	-1.103119e-006
7.270980079212713e-003	-9.233397e+000	-1.103105e-006
7.299124107218021e-003	-9.097082e+000	-1.103068e-006
7.344501937207733e-003	-8.769283e+000	-1.102978e-006
7.393330062207733e-003	-8.292253e+000	-1.102850e-006
7.442158187207733e-003	-7.707146e+000	-1.102693e-006
7.490986312207733e-003	-7.056226e+000	-1.102522e-006
7.539814437207732e-003	-6.390515e+000	-1.102349e-006
7.588642562207732e-003	-5.762269e+000	-1.102190e-006
7.637470687207732e-003	-5.220091e+000	-1.102054e-006
7.686298812207732e-003	-4.784040e+000	-1.101947e-006
7.710630237519336e-003	-4.618331e+000	-1.101907e-006
7.725702797681385e-003	-4.543257e+000	-1.101889e-006
7.744376326201938e-003	-4.476035e+000	-1.101873e-006
7.762909049432703e-003	-4.434862e+000	-1.101863e-006
7.786011153862204e-003	-4.424476e+000	-1.101860e-006
7.823445059560156e-003	-4.490546e+000	-1.101876e-006
7.872273184560156e-003	-4.697390e+000	-1.101926e-006
7.921101309560157e-003	-5.019012e+000	-1.102005e-006
7.969929434560158e-003	-5.423811e+000	-1.102105e-006
8.018757559560158e-003	-5.862829e+000	-1.102215e-006
8.067585684560159e-003	-6.283792e+000	-1.102321e-006
8.116413809560160e-003	-6.635980e+000	-1.102412e-006
8.165241934560160e-003	-6.884211e+000	-1.102476e-006
8.202626110083619e-003	-6.990844e+000	-1.102504e-006
8.219539600888608e-003	-7.004891e+000	-1.102507e-006
8.236654729315994e-003	-6.989863e+000	-1.102503e-006
8.260029987779152e-003	-6.935271e+000	-1.102489e-006
8.281327844317709e-003	-6.847620e+000	-1.102467e-006
8.315884845399500e-003	-6.626619e+000	-1.102409e-006
8.364712970399500e-003	-6.192636e+000	-1.102298e-006
8.413541095399501e-003	-5.638699e+000	-1.102159e-006
8.462369220399502e-003	-4.992111e+000	-1.101999e-006
8.511197345399502e-003	-4.300945e+000	-1.101832e-006
8.560025470399503e-003	-3.617331e+000	-1.101670e-006
8.608853595399504e-003	-2.992596e+000	-1.101526e-006
8.657681720399504e-003	-2.437280e+000	-1.101400e-006
8.665581617083635e-003	-2.364053e+000	-1.101384e-006
8.673717725231109e-003	-2.293019e+000	-1.101368e-006
8.677862325554855e-003	-2.258171e+000	-1.101360e-006
8.680956025021816e-003	-2.233070e+000	-1.101355e-006
8.683642180552446e-003	-2.211806e+000	-1.101350e-006
8.685843185150973e-003	-2.194692e+000	-1.101346e-006
8.686942433531592e-003	-2.186318e+000	-1.101344e-006
8.687639924935956e-003	-2.181040e+000	-1.101343e-006
8.688146686464563e-003	-2.177225e+000	-1.101342e-006
8.688571486569544e-003	-2.174042e+000	-1.101342e-006
8.689017937357147e-003	-2.170711e+000	-1.101341e-006
8.689500747655154e-003	-2.167122e+000	-1.101340e-006
8.689820808527930e-003	-2.164752e+000	-1.101340e-006
8.690496770114551e-003	-2.159768e+000	-1.101339e-006
8.691172731701174e-003	-2.154819e+000	-1.101338e-006
8.691848693287796e-003	-2.149906e+000	-1.101336e-006
8.692524654874417e-003	-2.145029e+000	-1.101335e-006
8.693200616461038e-003	-2.140187e+000	-1.101334e-006
8.693876578047662e-003	-2.135382e+000	-1.101333e-006
8.694552539634283e-003	-2.130612e+000	-1.101332e-006
8.703481075192003e-003	-2.070851e+000	-1.101319e-006
8.709829516299441e-003	-2.031299e+000	-1.101310e-006
8.715358512270111e-003	-1.998747e+000	-1.101303e-006
8.716887713731093e-003	-1.990145e+000	-1.101301e-006
8.718190269618249e-003	-1.983024e+000	-1.101300e-006
8.718659523140172e-003	-1.980490e+000	-1.101299e-006
8.719099399868134e-003	-1.978135e+000	-1.101299e-006
8.719339745874905e-003	-1.976854e+000	-1.101298e-006
8.719590837653266e-003	-1.975521e+000	-1.101298e-006
8.719926818908744e-003	-1.973744e+000	-1.101298e-006
8.720148856727238e-003	-1.972574e+000	-1.101297e-006
8.720389251668650e-003	-1.971312e+000	-1.101297e-006
8.720653582445361e-003	-1.969930e+000	-1.101297e-006
8.721138335635299e-003	-1.967413e+000	-1.101296e-006
8.722107842015173e-003	-1.962438e+000	-1.101295e-006
8.723815347478457e-003	-1.953841e+000	-1.101293e-006
8.725944442853342e-003	-1.943392e+000	-1.101291e-006
8.732545762943996e-003	-1.913658e+000	-1.101285e-006
8.741347523064866e-003	-1.879480e+000	-1.101277e-006
8.753969731220586e-003	-1.837801e+000	-1.101268e-006
8.759725752723284e-003	-1.821755e+000	-1.101265e-006
8.760393283500718e-003	-1.820147e+000	-1.101264e-006
8.770557934920599e-003	-1.800706e+000	-1.101260e-006
8.780722586340481e-003	-1.789677e+000	-1.101258e-006
8.790887237760362e-003	-1.787058e+000	-1.101257e-006
8.801051889180244e-003	-1.792850e+000	-1.101258e-006
8.811216540600126e-003	-1.807053e+000	-1.101261e-006
